time	V(pos)	I(Iexample)
0.000000000000000e+000	0.000000e+000	0.000000e+000
1.000000000000000e-008	8.057318e-010	8.000000e-011
1.001000000000000e-008	8.057033e-010	8.008000e-011
1.011000000000000e-008	8.054252e-010	8.088000e-011
1.012000000000000e-008	8.053982e-010	8.096000e-011
6.220098004114362e-004	8.000000e-010	4.976078e-006
6.239629254114362e-004	9.960996e-005	4.991703e-006
6.239668404504987e-004	1.330714e-004	4.991735e-006
6.239746705286237e-004	1.995599e-004	4.991797e-006
6.239760616174009e-004	1.996209e-004	4.991809e-006
6.239768176150680e-004	1.994706e-004	4.991814e-006
6.239770685510486e-004	1.997241e-004	4.991817e-006
6.239771716705321e-004	1.998755e-004	4.991817e-006
6.239772283858508e-004	1.991125e-004	4.991818e-006
6.239772482255196e-004	1.987342e-004	4.991818e-006
6.239772662616824e-004	1.987869e-004	4.991818e-006
6.239772779351607e-004	1.991039e-004	4.991818e-006
6.239772937310421e-004	1.997110e-004	4.991819e-006
6.239773087301050e-004	2.002223e-004	4.991819e-006
6.239773208014780e-004	2.004625e-004	4.991819e-006
6.239773310526023e-004	2.004744e-004	4.991819e-006
6.239773417746597e-004	2.002955e-004	4.991819e-006
6.239773533912433e-004	1.999442e-004	4.991819e-006
6.239773659237088e-004	1.994888e-004	4.991819e-006
6.239773795152409e-004	1.990435e-004	4.991819e-006
6.239773914315749e-004	1.988050e-004	4.991819e-006
6.239774029159367e-004	1.987884e-004	4.991819e-006
6.239774159718948e-004	1.990115e-004	4.991819e-006
6.239774301896146e-004	1.994327e-004	4.991819e-006
6.239774461164609e-004	1.999028e-004	4.991819e-006
6.239774683087150e-004	2.002918e-004	4.991820e-006
6.239774815110485e-004	2.002754e-004	4.991820e-006
6.239774926365642e-004	2.000607e-004	4.991820e-006
6.239775054284073e-004	1.996892e-004	4.991820e-006
6.239775188153825e-004	1.993080e-004	4.991820e-006
6.239775379695490e-004	1.989588e-004	4.991820e-006
6.239775520473856e-004	1.989470e-004	4.991820e-006
6.239775657731411e-004	1.991795e-004	4.991820e-006
6.239775813334898e-004	1.995879e-004	4.991821e-006
6.239775982280390e-004	2.000047e-004	4.991821e-006
6.239776129026300e-004	2.002120e-004	4.991821e-006
6.239776244001150e-004	2.002021e-004	4.991821e-006
6.239776363453669e-004	2.000229e-004	4.991821e-006
6.239776514475228e-004	1.996630e-004	4.991821e-006
6.239776653274343e-004	1.993383e-004	4.991821e-006
6.239776860869867e-004	1.990488e-004	4.991822e-006
6.239777009069942e-004	1.990741e-004	4.991822e-006
6.239777154856993e-004	1.993167e-004	4.991822e-006
6.239777319282108e-004	1.996856e-004	4.991822e-006
6.239777507782574e-004	2.000385e-004	4.991822e-006
6.239777632690858e-004	2.001348e-004	4.991822e-006
6.239777752896898e-004	2.000654e-004	4.991822e-006
6.239777887801181e-004	1.998440e-004	4.991822e-006
6.239778042150871e-004	1.995165e-004	4.991823e-006
6.239778208581738e-004	1.992123e-004	4.991823e-006
6.239778346269618e-004	1.990977e-004	4.991823e-006
6.239778480389298e-004	1.991627e-004	4.991823e-006
6.239778639508069e-004	1.994086e-004	4.991823e-006
6.239778809058077e-004	1.997205e-004	4.991823e-006
6.239779027324270e-004	2.000137e-004	4.991823e-006
6.239779147618385e-004	2.000434e-004	4.991824e-006
6.239779275585794e-004	1.999224e-004	4.991824e-006
6.239779430897108e-004	1.996642e-004	4.991824e-006
6.239779594409551e-004	1.993978e-004	4.991824e-006
6.239779825005408e-004	1.992037e-004	4.991824e-006
6.239779991218125e-004	1.992684e-004	4.991824e-006
6.239780157605452e-004	1.995011e-004	4.991824e-006
6.239780341591319e-004	1.997701e-004	4.991824e-006
6.239780587060014e-004	1.999506e-004	4.991824e-006
6.239780742214901e-004	1.998904e-004	4.991824e-006
6.239780889876124e-004	1.996973e-004	4.991825e-006
6.239781066427744e-004	1.994429e-004	4.991825e-006
6.239781278061148e-004	1.992561e-004	4.991825e-006
6.239781428045729e-004	1.992745e-004	4.991825e-006
6.239781589459210e-004	1.994442e-004	4.991825e-006
6.239781782253023e-004	1.996962e-004	4.991825e-006
6.239782009184580e-004	1.998993e-004	4.991826e-006
6.239782146854231e-004	1.999017e-004	4.991826e-006
6.239782290234772e-004	1.997775e-004	4.991826e-006
6.239782484938679e-004	1.995345e-004	4.991826e-006
6.239782674407092e-004	1.993424e-004	4.991826e-006
6.239782839255336e-004	1.992981e-004	4.991826e-006
6.239783000591509e-004	1.993967e-004	4.991826e-006
6.239783212335891e-004	1.996286e-004	4.991827e-006
6.239783415266340e-004	1.998176e-004	4.991827e-006
6.239783585422813e-004	1.998618e-004	4.991827e-006
6.239783738063393e-004	1.997784e-004	4.991827e-006
6.239783922780907e-004	1.995893e-004	4.991827e-006
6.239784119925516e-004	1.994091e-004	4.991827e-006
6.239784319148598e-004	1.993496e-004	4.991828e-006
6.239784495414574e-004	1.994355e-004	4.991828e-006
6.239784726152898e-004	1.996464e-004	4.991828e-006
6.239784937288857e-004	1.997972e-004	4.991828e-006
6.239785112042636e-004	1.998107e-004	4.991828e-006
6.239785278221154e-004	1.997114e-004	4.991828e-006
6.239785501287677e-004	1.995186e-004	4.991829e-006
6.239785717339861e-004	1.993921e-004	4.991829e-006
6.239785893853369e-004	1.994031e-004	4.991829e-006
6.239786082931088e-004	1.995258e-004	4.991829e-006
6.239786311690223e-004	1.996897e-004	4.991829e-006
6.239786592673415e-004	1.997674e-004	4.991829e-006
6.239786782743672e-004	1.996970e-004	4.991829e-006
6.239786991138262e-004	1.995455e-004	4.991829e-006
6.239787218420770e-004	1.994264e-004	4.991830e-006
6.239787406722386e-004	1.994325e-004	4.991830e-006
6.239787606956664e-004	1.995418e-004	4.991830e-006
6.239787849619088e-004	1.996824e-004	4.991830e-006
6.239788150671839e-004	1.997299e-004	4.991830e-006
6.239788362134494e-004	1.996484e-004	4.991831e-006
6.239788608376543e-004	1.995081e-004	4.991831e-006
6.239788860765999e-004	1.994467e-004	4.991831e-006
6.239789053013830e-004	1.995002e-004	4.991831e-006
6.239789292171861e-004	1.996314e-004	4.991831e-006
6.239789550355342e-004	1.997240e-004	4.991832e-006
6.239789750193743e-004	1.997021e-004	4.991832e-006
6.239789963609238e-004	1.996004e-004	4.991832e-006
6.239790218527017e-004	1.994941e-004	4.991832e-006
6.239790489727954e-004	1.994906e-004	4.991833e-006
6.239790731366509e-004	1.995804e-004	4.991833e-006
6.239791014033653e-004	1.996797e-004	4.991833e-006
6.239791322906590e-004	1.996692e-004	4.991833e-006
6.239791575150971e-004	1.995791e-004	4.991833e-006
6.239791861518749e-004	1.994969e-004	4.991834e-006
6.239792129876400e-004	1.995229e-004	4.991834e-006
6.239792395895260e-004	1.996172e-004	4.991834e-006
6.239792689820207e-004	1.996865e-004	4.991834e-006
6.239792918440182e-004	1.996573e-004	4.991834e-006
6.239793173344162e-004	1.995676e-004	4.991834e-006
6.239793461010349e-004	1.995046e-004	4.991835e-006
6.239793701796012e-004	1.995336e-004	4.991835e-006
6.239793979894823e-004	1.996208e-004	4.991835e-006
6.239794285200583e-004	1.996717e-004	4.991835e-006
6.239794527496573e-004	1.996355e-004	4.991836e-006
6.239794819511434e-004	1.995521e-004	4.991836e-006
6.239795129451933e-004	1.995217e-004	4.991836e-006
6.239795384104830e-004	1.995667e-004	4.991836e-006
6.239795753596171e-004	1.996435e-004	4.991837e-006
6.239796109024120e-004	1.996300e-004	4.991837e-006
6.239796416933292e-004	1.995655e-004	4.991837e-006
6.239796766430514e-004	1.995342e-004	4.991838e-006
6.239797041099972e-004	1.995738e-004	4.991838e-006
6.239797444059266e-004	1.996370e-004	4.991838e-006
6.239797828958041e-004	1.996134e-004	4.991838e-006
6.239798184806310e-004	1.995562e-004	4.991839e-006
6.239798561563933e-004	1.995559e-004	4.991839e-006
6.239798871142002e-004	1.996040e-004	4.991839e-006
6.239799273307441e-004	1.996355e-004	4.991839e-006
6.239799584577014e-004	1.996023e-004	4.991840e-006
6.239800022863947e-004	1.995564e-004	4.991840e-006
6.239800450908634e-004	1.995839e-004	4.991840e-006
6.239800913943300e-004	1.996241e-004	4.991841e-006
6.239801358393411e-004	1.995977e-004	4.991841e-006
6.239801807799585e-004	1.995619e-004	4.991841e-006
6.239802267193219e-004	1.995874e-004	4.991842e-006
6.239802745112956e-004	1.996193e-004	4.991842e-006
6.239803230349191e-004	1.995940e-004	4.991843e-006
6.239803777825501e-004	1.995699e-004	4.991843e-006
6.239804303175852e-004	1.995999e-004	4.991844e-006
6.239804838766960e-004	1.996114e-004	4.991844e-006
6.239805295982105e-004	1.995813e-004	4.991844e-006
6.239805824996264e-004	1.995766e-004	4.991844e-006
6.239806252767056e-004	1.996050e-004	4.991845e-006
6.239806781420924e-004	1.996049e-004	4.991845e-006
6.239807216558672e-004	1.995777e-004	4.991846e-006
6.239807738923258e-004	1.995823e-004	4.991846e-006
6.239808203118101e-004	1.996082e-004	4.991847e-006
6.239808737799177e-004	1.995984e-004	4.991847e-006
6.239809252015279e-004	1.995760e-004	4.991848e-006
6.239809805662615e-004	1.995903e-004	4.991848e-006
6.239810438745548e-004	1.996048e-004	4.991849e-006
6.239811073339374e-004	1.995850e-004	4.991849e-006
6.239811720025435e-004	1.995867e-004	4.991849e-006
6.239812299001839e-004	1.996041e-004	4.991850e-006
6.239812953295728e-004	1.995932e-004	4.991850e-006
6.239813692590473e-004	1.995847e-004	4.991851e-006
6.239814425546272e-004	1.996004e-004	4.991852e-006
6.239815151674043e-004	1.995935e-004	4.991852e-006
6.239815891826157e-004	1.995848e-004	4.991853e-006
6.239816655485979e-004	1.995983e-004	4.991854e-006
6.239817465048794e-004	1.995932e-004	4.991854e-006
6.239818258373985e-004	1.995863e-004	4.991854e-006
6.239819086020315e-004	1.995978e-004	4.991855e-006
6.239819970153667e-004	1.995927e-004	4.991856e-006
6.239820899638046e-004	1.995890e-004	4.991857e-006
6.239821840648187e-004	1.995978e-004	4.991858e-006
6.239822777296377e-004	1.995934e-004	4.991858e-006
6.239824178459686e-004	1.995939e-004	4.991859e-006
6.239825371124374e-004	1.995953e-004	4.991860e-006
6.239826581863001e-004	1.995902e-004	4.991861e-006
6.239827889731719e-004	1.995939e-004	4.991862e-006
6.239829669747592e-004	1.995926e-004	4.991864e-006
6.239831468089182e-004	1.995932e-004	4.991865e-006
6.239833283158127e-004	1.995938e-004	4.991867e-006
6.239835022792367e-004	1.995921e-004	4.991868e-006
6.239836799725725e-004	1.995948e-004	4.991869e-006
6.239838801757457e-004	1.995932e-004	4.991871e-006
6.239841647487930e-004	1.995936e-004	4.991874e-006
6.239845270973850e-004	1.995936e-004	4.991876e-006
6.239848885223882e-004	1.995940e-004	4.991879e-006
6.239852674168218e-004	1.995940e-004	4.991882e-006
6.239856412553045e-004	1.995943e-004	4.991885e-006
6.239860081866320e-004	1.995945e-004	4.991888e-006
6.239863729747500e-004	1.995944e-004	4.991891e-006
6.239867354961949e-004	1.995950e-004	4.991894e-006
6.239871096059772e-004	1.995945e-004	4.991897e-006
6.239875095452412e-004	1.995953e-004	4.991900e-006
6.239879667445202e-004	1.995949e-004	4.991904e-006
6.239885398559666e-004	1.995955e-004	4.991908e-006
6.239893764103837e-004	1.995958e-004	4.991915e-006
6.239910495192180e-004	1.995964e-004	4.991929e-006
6.239941162098733e-004	1.995976e-004	4.991953e-006
6.239975967190168e-004	1.995990e-004	4.991981e-006
6.240037276940124e-004	1.996015e-004	4.992030e-006
6.240137987168226e-004	1.996055e-004	4.992110e-006
6.240317994370639e-004	1.996127e-004	4.992255e-006
6.240677144708620e-004	1.996271e-004	4.992542e-006
6.241287611567308e-004	1.996515e-004	4.993030e-006
6.242467074540391e-004	1.996987e-004	4.993974e-006
6.244596572390822e-004	1.997839e-004	4.995677e-006
6.248502738130087e-004	1.999401e-004	4.998802e-006
6.256315069608614e-004	2.002444e-004	5.005052e-006
6.258268152478246e-004	2.003239e-004	5.006615e-006
6.262174318217510e-004	2.004870e-004	5.009740e-006
6.269986649696037e-004	2.007995e-004	5.015989e-006
6.279491977368387e-004	2.011797e-004	5.023594e-006
6.281868309286474e-004	2.012747e-004	5.025495e-006
6.286620973122648e-004	2.014648e-004	5.029297e-006
1.000000000000000e-003	3.500000e-004	8.000000e-006
1.000183263766837e-003	3.499267e-004	7.998534e-006
1.000549791300511e-003	3.497801e-004	7.995602e-006
1.198736167481134e-003	2.705055e-004	6.410110e-006
1.872564292481132e-003	9.742831e-007	1.019486e-006
1.874517417481132e-003	1.394027e-007	1.003861e-006
1.874521871233452e-003	1.022337e-007	1.003825e-006
1.874530778738091e-003	-1.003441e-008	1.003754e-006
1.874532915998695e-003	-1.507194e-008	1.003737e-006
1.874533093001483e-003	-1.406929e-008	1.003735e-006
1.874533205108513e-003	-1.331276e-008	1.003734e-006
1.874533379783792e-003	-1.225433e-008	1.003733e-006
1.874533729134352e-003	-1.041092e-008	1.003730e-006
1.874534166944264e-003	-8.474250e-009	1.003727e-006
1.874534564531930e-003	-7.044405e-009	1.003723e-006
1.874534949222428e-003	-5.924202e-009	1.003720e-006
1.874535320858203e-003	-5.038985e-009	1.003717e-006
1.874535706439831e-003	-4.284864e-009	1.003714e-006
1.874536086902191e-003	-3.673047e-009	1.003711e-006
1.874536473275412e-003	-3.162570e-009	1.003708e-006
1.874536853599459e-003	-2.749273e-009	1.003705e-006
1.874537238274846e-003	-2.405340e-009	1.003702e-006
1.874537619275526e-003	-2.124785e-009	1.003699e-006
1.874538003552042e-003	-1.891714e-009	1.003696e-006
1.874538385123279e-003	-1.700977e-009	1.003693e-006
1.874538768953405e-003	-1.542842e-009	1.003690e-006
1.874539150854926e-003	-1.413104e-009	1.003687e-006
1.874539534380563e-003	-1.305669e-009	1.003684e-006
1.874539916539984e-003	-1.217368e-009	1.003681e-006
1.874540299853707e-003	-1.144313e-009	1.003678e-006
1.874540682192977e-003	-1.084194e-009	1.003675e-006
1.874541065353538e-003	-1.034488e-009	1.003672e-006
1.874541447820966e-003	-9.935476e-010	1.003668e-006
1.874541830873166e-003	-9.597138e-010	1.003665e-006
1.874542213432024e-003	-9.318291e-010	1.003662e-006
1.874542596407038e-003	-9.087928e-010	1.003659e-006
1.874542979030913e-003	-8.897986e-010	1.003656e-006
1.874543361950996e-003	-8.741110e-010	1.003653e-006
1.874543744621169e-003	-8.611719e-010	1.003650e-006
1.874544127502169e-003	-8.504872e-010	1.003647e-006
1.874544510205296e-003	-8.416726e-010	1.003644e-006
1.874544893058478e-003	-8.343946e-010	1.003641e-006
1.874545275785063e-003	-8.283896e-010	1.003638e-006
1.874545658618448e-003	-8.234319e-010	1.003635e-006
1.874546041361728e-003	-8.193409e-010	1.003632e-006
1.874546424181024e-003	-8.159635e-010	1.003629e-006
1.874546806936189e-003	-8.131764e-010	1.003626e-006
1.874547189745456e-003	-8.108756e-010	1.003623e-006
1.874547572509080e-003	-8.089768e-010	1.003619e-006
1.874547955311210e-003	-8.074094e-010	1.003616e-006
1.874548338080854e-003	-8.061158e-010	1.003613e-006
1.874548720877905e-003	-8.050479e-010	1.003610e-006
1.874549103651834e-003	-8.041666e-010	1.003607e-006
1.874549486445270e-003	-8.034391e-010	1.003604e-006
1.874549869222248e-003	-8.028386e-010	1.003601e-006
1.874550252013111e-003	-8.023430e-010	1.003598e-006
1.874550634792260e-003	-8.019340e-010	1.003595e-006
1.874551017581292e-003	-8.015962e-010	1.003592e-006
1.874551400361986e-003	-8.013176e-010	1.003589e-006
1.874551783149714e-003	-8.010875e-010	1.003586e-006
1.874552165931508e-003	-8.008976e-010	1.003583e-006
1.874552548718308e-003	-8.007409e-010	1.003580e-006
1.874552931500885e-003	-8.006116e-010	1.003577e-006
1.874553314287024e-003	-8.005048e-010	1.003574e-006
1.874553697070158e-003	-8.004167e-010	1.003570e-006
1.874554079855828e-003	-8.003439e-010	1.003567e-006
1.874554462639358e-003	-8.002839e-010	1.003564e-006
1.874554845424693e-003	-8.002343e-010	1.003561e-006
1.874555228208506e-003	-8.001934e-010	1.003558e-006
1.874555610993603e-003	-8.001596e-010	1.003555e-006
1.874555993777617e-003	-8.001318e-010	1.003552e-006
1.874556376562544e-003	-8.001088e-010	1.003549e-006
1.874556759346701e-003	-8.000898e-010	1.003546e-006
1.874557142131508e-003	-8.000741e-010	1.003543e-006
1.874557524915766e-003	-8.000611e-010	1.003540e-006
1.874557907700487e-003	-8.000505e-010	1.003537e-006
1.874558290484818e-003	-8.000417e-010	1.003534e-006
1.874558728153826e-003	-8.000336e-010	1.003530e-006
1.874559225039396e-003	-8.000263e-010	1.003526e-006
1.874559810579509e-003	-8.000197e-010	1.003522e-006
1.874560489880759e-003	-8.000141e-010	1.003516e-006
1.874561319181025e-003	-8.000094e-010	1.003509e-006
1.874562342824606e-003	-8.000058e-010	1.003501e-006
1.874563693041522e-003	-8.000031e-010	1.003490e-006
1.874565554560101e-003	-8.000013e-010	1.003476e-006
1.874568432247233e-003	-8.000004e-010	1.003453e-006
1.999989999991257e-003	-8.000000e-010	8.000007e-011
2.000000000000000e-003	-8.000000e-010	0.000000e+000
